! Sample S2P file — 4th-order Butterworth bandpass, centre 1.5 GHz
! Generated by TINA screenshot script for demonstration purposes
# MHz S MA R 50
300.000  1.000000  175.000  0.000048  -10.000  0.000048  -10.000  1.000000  175.000
306.750  1.000000  174.125  0.000053  -10.850  0.000053  -10.850  1.000000  174.125
313.500  1.000000  173.250  0.000058  -11.700  0.000058  -11.700  1.000000  173.250
320.250  1.000000  172.375  0.000064  -12.550  0.000064  -12.550  1.000000  172.375
327.000  1.000000  171.500  0.000070  -13.400  0.000070  -13.400  1.000000  171.500
333.750  1.000000  170.625  0.000077  -14.250  0.000077  -14.250  1.000000  170.625
340.500  1.000000  169.750  0.000084  -15.100  0.000084  -15.100  1.000000  169.750
347.250  1.000000  168.875  0.000092  -15.950  0.000092  -15.950  1.000000  168.875
354.000  1.000000  168.000  0.000100  -16.800  0.000100  -16.800  1.000000  168.000
360.750  1.000000  167.125  0.000109  -17.650  0.000109  -17.650  1.000000  167.125
367.500  1.000000  166.250  0.000118  -18.500  0.000118  -18.500  1.000000  166.250
374.250  1.000000  165.375  0.000128  -19.350  0.000128  -19.350  1.000000  165.375
381.000  1.000000  164.500  0.000139  -20.200  0.000139  -20.200  1.000000  164.500
387.750  1.000000  163.625  0.000151  -21.050  0.000151  -21.050  1.000000  163.625
394.500  1.000000  162.750  0.000163  -21.900  0.000163  -21.900  1.000000  162.750
401.250  1.000000  161.875  0.000176  -22.750  0.000176  -22.750  1.000000  161.875
408.000  1.000000  161.000  0.000191  -23.600  0.000191  -23.600  1.000000  161.000
414.750  1.000000  160.125  0.000206  -24.450  0.000206  -24.450  1.000000  160.125
421.500  1.000000  159.250  0.000222  -25.300  0.000222  -25.300  1.000000  159.250
428.250  1.000000  158.375  0.000239  -26.150  0.000239  -26.150  1.000000  158.375
435.000  1.000000  157.500  0.000257  -27.000  0.000257  -27.000  1.000000  157.500
441.750  1.000000  156.625  0.000277  -27.850  0.000277  -27.850  1.000000  156.625
448.500  1.000000  155.750  0.000298  -28.700  0.000298  -28.700  1.000000  155.750
455.250  1.000000  154.875  0.000320  -29.550  0.000320  -29.550  1.000000  154.875
462.000  1.000000  154.000  0.000343  -30.400  0.000343  -30.400  1.000000  154.000
468.750  1.000000  153.125  0.000368  -31.250  0.000368  -31.250  1.000000  153.125
475.500  1.000000  152.250  0.000395  -32.100  0.000395  -32.100  1.000000  152.250
482.250  1.000000  151.375  0.000423  -32.950  0.000423  -32.950  1.000000  151.375
489.000  1.000000  150.500  0.000453  -33.800  0.000453  -33.800  1.000000  150.500
495.750  1.000000  149.625  0.000485  -34.650  0.000485  -34.650  1.000000  149.625
502.500  1.000000  148.750  0.000519  -35.500  0.000519  -35.500  1.000000  148.750
509.250  1.000000  147.875  0.000555  -36.350  0.000555  -36.350  1.000000  147.875
516.000  1.000000  147.000  0.000593  -37.200  0.000593  -37.200  1.000000  147.000
522.750  1.000000  146.125  0.000634  -38.050  0.000634  -38.050  1.000000  146.125
529.500  1.000000  145.250  0.000677  -38.900  0.000677  -38.900  1.000000  145.250
536.250  1.000000  144.375  0.000723  -39.750  0.000723  -39.750  1.000000  144.375
543.000  1.000000  143.500  0.000771  -40.600  0.000771  -40.600  1.000000  143.500
549.750  1.000000  142.625  0.000822  -41.450  0.000822  -41.450  1.000000  142.625
556.500  1.000000  141.750  0.000877  -42.300  0.000877  -42.300  1.000000  141.750
563.250  1.000000  140.875  0.000935  -43.150  0.000935  -43.150  1.000000  140.875
570.000  1.000000  140.000  0.000996  -44.000  0.000996  -44.000  1.000000  140.000
576.750  0.999999  139.125  0.001061  -44.850  0.001061  -44.850  0.999999  139.125
583.500  0.999999  138.250  0.001130  -45.700  0.001130  -45.700  0.999999  138.250
590.250  0.999999  137.375  0.001203  -46.550  0.001203  -46.550  0.999999  137.375
597.000  0.999999  136.500  0.001280  -47.400  0.001280  -47.400  0.999999  136.500
603.750  0.999999  135.625  0.001363  -48.250  0.001363  -48.250  0.999999  135.625
610.500  0.999999  134.750  0.001450  -49.100  0.001450  -49.100  0.999999  134.750
617.250  0.999999  133.875  0.001542  -49.950  0.001542  -49.950  0.999999  133.875
624.000  0.999999  133.000  0.001639  -50.800  0.001639  -50.800  0.999999  133.000
630.750  0.999998  132.125  0.001743  -51.650  0.001743  -51.650  0.999998  132.125
637.500  0.999998  131.250  0.001853  -52.500  0.001853  -52.500  0.999998  131.250
644.250  0.999998  130.375  0.001969  -53.350  0.001969  -53.350  0.999998  130.375
651.000  0.999998  129.500  0.002093  -54.200  0.002093  -54.200  0.999998  129.500
657.750  0.999998  128.625  0.002224  -55.050  0.002224  -55.050  0.999998  128.625
664.500  0.999997  127.750  0.002362  -55.900  0.002362  -55.900  0.999997  127.750
671.250  0.999997  126.875  0.002510  -56.750  0.002510  -56.750  0.999997  126.875
678.000  0.999996  126.000  0.002666  -57.600  0.002666  -57.600  0.999996  126.000
684.750  0.999996  125.125  0.002831  -58.450  0.002831  -58.450  0.999996  125.125
691.500  0.999995  124.250  0.003007  -59.300  0.003007  -59.300  0.999995  124.250
698.250  0.999995  123.375  0.003193  -60.150  0.003193  -60.150  0.999995  123.375
705.000  0.999994  122.500  0.003390  -61.000  0.003390  -61.000  0.999994  122.500
711.750  0.999994  121.625  0.003600  -61.850  0.003600  -61.850  0.999994  121.625
718.500  0.999993  120.750  0.003823  -62.700  0.003823  -62.700  0.999993  120.750
725.250  0.999992  119.875  0.004059  -63.550  0.004059  -63.550  0.999992  119.875
732.000  0.999991  119.000  0.004309  -64.400  0.004309  -64.400  0.999991  119.000
738.750  0.999990  118.125  0.004576  -65.250  0.004576  -65.250  0.999990  118.125
745.500  0.999988  117.250  0.004858  -66.100  0.004858  -66.100  0.999988  117.250
752.250  0.999987  116.375  0.005159  -66.950  0.005159  -66.950  0.999987  116.375
759.000  0.999985  115.500  0.005478  -67.800  0.005478  -67.800  0.999985  115.500
765.750  0.999983  114.625  0.005817  -68.650  0.005817  -68.650  0.999983  114.625
772.500  0.999981  113.750  0.006178  -69.500  0.006178  -69.500  0.999981  113.750
779.250  0.999978  112.875  0.006561  -70.350  0.006561  -70.350  0.999978  112.875
786.000  0.999976  112.000  0.006969  -71.200  0.006969  -71.200  0.999976  112.000
792.750  0.999973  111.125  0.007403  -72.050  0.007403  -72.050  0.999973  111.125
799.500  0.999969  110.250  0.007865  -72.900  0.007865  -72.900  0.999969  110.250
806.250  0.999965  109.375  0.008357  -73.750  0.008357  -73.750  0.999965  109.375
813.000  0.999961  108.500  0.008880  -74.600  0.008880  -74.600  0.999961  108.500
819.750  0.999955  107.625  0.009438  -75.450  0.009438  -75.450  0.999955  107.625
826.500  0.999950  106.750  0.010032  -76.300  0.010032  -76.300  0.999950  106.750
833.250  0.999943  105.875  0.010666  -77.150  0.010666  -77.150  0.999943  105.875
840.000  0.999936  105.000  0.011341  -78.000  0.011341  -78.000  0.999936  105.000
846.750  0.999927  104.125  0.012062  -78.850  0.012062  -78.850  0.999927  104.125
853.500  0.999918  103.250  0.012831  -79.700  0.012831  -79.700  0.999918  103.250
860.250  0.999907  102.375  0.013652  -80.550  0.013652  -80.550  0.999907  102.375
867.000  0.999894  101.500  0.014529  -81.400  0.014529  -81.400  0.999894  101.500
873.750  0.999880  100.625  0.015466  -82.250  0.015466  -82.250  0.999880  100.625
880.500  0.999864  99.750  0.016467  -83.100  0.016467  -83.100  0.999864  99.750
887.250  0.999846  98.875  0.017539  -83.950  0.017539  -83.950  0.999846  98.875
894.000  0.999825  98.000  0.018685  -84.800  0.018685  -84.800  0.999825  98.000
900.750  0.999802  97.125  0.019912  -85.650  0.019912  -85.650  0.999802  97.125
907.500  0.999775  96.250  0.021226  -86.500  0.021226  -86.500  0.999775  96.250
914.250  0.999744  95.375  0.022635  -87.350  0.022635  -87.350  0.999744  95.375
921.000  0.999708  94.500  0.024145  -88.200  0.024145  -88.200  0.999708  94.500
927.750  0.999668  93.625  0.025765  -89.050  0.025765  -89.050  0.999668  93.625
934.500  0.999622  92.750  0.027504  -89.900  0.027504  -89.900  0.999622  92.750
941.250  0.999569  91.875  0.029371  -90.750  0.029371  -90.750  0.999569  91.875
948.000  0.999508  91.000  0.031378  -91.600  0.031378  -91.600  0.999508  91.000
954.750  0.999438  90.125  0.033536  -92.450  0.033536  -92.450  0.999438  90.125
961.500  0.999357  89.250  0.035858  -93.300  0.035858  -93.300  0.999357  89.250
968.250  0.999264  88.375  0.038357  -94.150  0.038357  -94.150  0.999264  88.375
975.000  0.999157  87.500  0.041051  -95.000  0.041051  -95.000  0.999157  87.500
981.750  0.999034  86.625  0.043954  -95.850  0.043954  -95.850  0.999034  86.625
988.500  0.998891  85.750  0.047087  -96.700  0.047087  -96.700  0.998891  85.750
995.250  0.998726  84.875  0.050468  -97.550  0.050468  -97.550  0.998726  84.875
1002.000  0.998534  84.000  0.054122  -98.400  0.054122  -98.400  0.998534  84.000
1008.750  0.998312  83.125  0.058072  -99.250  0.058072  -99.250  0.998312  83.125
1015.500  0.998055  82.250  0.062346  -100.100  0.062346  -100.100  0.998055  82.250
1022.250  0.997755  81.375  0.066973  -100.950  0.066973  -100.950  0.997755  81.375
1029.000  0.997406  80.500  0.071988  -101.800  0.071988  -101.800  0.997406  80.500
1035.750  0.996998  79.625  0.077426  -102.650  0.077426  -102.650  0.996998  79.625
1042.500  0.996522  78.750  0.083327  -103.500  0.083327  -103.500  0.996522  78.750
1049.250  0.995965  77.875  0.089737  -104.350  0.089737  -104.350  0.995965  77.875
1056.000  0.995313  77.000  0.096704  -105.200  0.096704  -105.200  0.995313  77.000
1062.750  0.994548  76.125  0.104282  -106.050  0.104282  -106.050  0.994548  76.125
1069.500  0.993648  75.250  0.112531  -106.900  0.112531  -106.900  0.993648  75.250
1076.250  0.992589  74.375  0.121517  -107.750  0.121517  -107.750  0.992589  74.375
1083.000  0.991341  73.500  0.131311  -108.600  0.131311  -108.600  0.991341  73.500
1089.750  0.989868  72.625  0.141992  -109.450  0.141992  -109.450  0.989868  72.625
1096.500  0.988126  71.750  0.153647  -110.300  0.153647  -110.300  0.988126  71.750
1103.250  0.986063  70.875  0.166370  -111.150  0.166370  -111.150  0.986063  70.875
1110.000  0.983619  70.000  0.180262  -112.000  0.180262  -112.000  0.983619  70.000
1116.750  0.980717  69.125  0.195432  -112.850  0.195432  -112.850  0.980717  69.125
1123.500  0.977271  68.250  0.211996  -113.700  0.211996  -113.700  0.977271  68.250
1130.250  0.973173  67.375  0.230076  -114.550  0.230076  -114.550  0.973173  67.375
1137.000  0.968298  66.500  0.249798  -115.400  0.249798  -115.400  0.968298  66.500
1143.750  0.962499  65.625  0.271287  -116.250  0.271287  -116.250  0.962499  65.625
1150.500  0.955601  64.750  0.294665  -117.100  0.294665  -117.100  0.955601  64.750
1157.250  0.947403  63.875  0.320043  -117.950  0.320043  -117.950  0.947403  63.875
1164.000  0.937674  63.000  0.347516  -118.800  0.347516  -118.800  0.937674  63.000
1170.750  0.926154  62.125  0.377145  -119.650  0.377145  -119.650  0.926154  62.125
1177.500  0.912556  61.250  0.408951  -120.500  0.408951  -120.500  0.912556  61.250
1184.250  0.896574  60.375  0.442894  -121.350  0.442894  -121.350  0.896574  60.375
1191.000  0.877893  59.500  0.478856  -122.200  0.478856  -122.200  0.877893  59.500
1197.750  0.856210  58.625  0.516628  -123.050  0.516628  -123.050  0.856210  58.625
1204.500  0.831256  57.750  0.555890  -123.900  0.555890  -123.900  0.831256  57.750
1211.250  0.802830  56.875  0.596208  -124.750  0.596208  -124.750  0.802830  56.875
1218.000  0.770836  56.000  0.637033  -125.600  0.637033  -125.600  0.770836  56.000
1224.750  0.735316  55.125  0.677724  -126.450  0.677724  -126.450  0.735316  55.125
1231.500  0.696479  54.250  0.717577  -127.300  0.717577  -127.300  0.696479  54.250
1238.250  0.654714  53.375  0.755877  -128.150  0.755877  -128.150  0.654714  53.375
1245.000  0.610585  52.500  0.791951  -129.000  0.791951  -129.000  0.610585  52.500
1251.750  0.564797  51.625  0.825230  -129.850  0.825230  -129.850  0.564797  51.625
1258.500  0.518150  50.750  0.855290  -130.700  0.855290  -130.700  0.518150  50.750
1265.250  0.471475  49.875  0.881879  -131.550  0.881879  -131.550  0.471475  49.875
1272.000  0.425571  49.000  0.904925  -132.400  0.904925  -132.400  0.425571  49.000
1278.750  0.381150  48.125  0.924513  -133.250  0.924513  -133.250  0.381150  48.125
1285.500  0.338806  47.250  0.940856  -134.100  0.940856  -134.100  0.338806  47.250
1292.250  0.298989  46.375  0.954257  -134.950  0.954257  -134.950  0.298989  46.375
1299.000  0.262006  45.500  0.965066  -135.800  0.965066  -135.800  0.262006  45.500
1305.750  0.228034  44.625  0.973653  -136.650  0.973653  -136.650  0.228034  44.625
1312.500  0.197136  43.750  0.980376  -137.500  0.980376  -137.500  0.197136  43.750
1319.250  0.169286  42.875  0.985567  -138.350  0.985567  -138.350  0.169286  42.875
1326.000  0.144388  42.000  0.989521  -139.200  0.989521  -139.200  0.144388  42.000
1332.750  0.122300  41.125  0.992493  -140.050  0.992493  -140.050  0.122300  41.125
1339.500  0.102845  40.250  0.994697  -140.900  0.994697  -140.900  0.102845  40.250
1346.250  0.085830  39.375  0.996310  -141.750  0.996310  -141.750  0.085830  39.375
1353.000  0.071053  38.500  0.997473  -142.600  0.997473  -142.600  0.071053  38.500
1359.750  0.058310  37.625  0.998299  -143.450  0.998299  -143.450  0.058310  37.625
1366.500  0.047402  36.750  0.998876  -144.300  0.998876  -144.300  0.047402  36.750
1373.250  0.038139  35.875  0.999272  -145.150  0.999272  -145.150  0.038139  35.875
1380.000  0.030337  35.000  0.999540  -146.000  0.999540  -146.000  0.030337  35.000
1386.750  0.023827  34.125  0.999716  -146.850  0.999716  -146.850  0.023827  34.125
1393.500  0.018450  33.250  0.999830  -147.700  0.999830  -147.700  0.018450  33.250
1400.250  0.014058  32.375  0.999901  -148.550  0.999901  -148.550  0.014058  32.375
1407.000  0.010517  31.500  0.999945  -149.400  0.999945  -149.400  0.010517  31.500
1413.750  0.007704  30.625  0.999970  -150.250  0.999970  -150.250  0.007704  30.625
1420.500  0.005507  29.750  0.999985  -151.100  0.999985  -151.100  0.005507  29.750
1427.250  0.003824  28.875  0.999993  -151.950  0.999993  -151.950  0.003824  28.875
1434.000  0.002566  28.000  0.999997  -152.800  0.999997  -152.800  0.002566  28.000
1440.750  0.001651  27.125  0.999999  -153.650  0.999999  -153.650  0.001651  27.125
1447.500  0.001008  26.250  0.999999  -154.500  0.999999  -154.500  0.001008  26.250
1454.250  0.000576  25.375  1.000000  -155.350  1.000000  -155.350  0.000576  25.375
1461.000  0.000301  24.500  1.000000  -156.200  1.000000  -156.200  0.000301  24.500
1467.750  0.000140  23.625  1.000000  -157.050  1.000000  -157.050  0.000140  23.625
1474.500  0.000054  22.750  1.000000  -157.900  1.000000  -157.900  0.000054  22.750
1481.250  0.000016  21.875  1.000000  -158.750  1.000000  -158.750  0.000016  21.875
1488.000  0.000003  21.000  1.000000  -159.600  1.000000  -159.600  0.000003  21.000
1494.750  0.000000  20.125  1.000000  -160.450  1.000000  -160.450  0.000000  20.125
1501.500  0.000000  0.000  1.000000  -161.300  1.000000  -161.300  0.000000  0.000
1508.250  0.000001  18.375  1.000000  -162.150  1.000000  -162.150  0.000001  18.375
1515.000  0.000006  17.500  1.000000  -163.000  1.000000  -163.000  0.000006  17.500
1521.750  0.000027  16.625  1.000000  -163.850  1.000000  -163.850  0.000027  16.625
1528.500  0.000078  15.750  1.000000  -164.700  1.000000  -164.700  0.000078  15.750
1535.250  0.000182  14.875  1.000000  -165.550  1.000000  -165.550  0.000182  14.875
1542.000  0.000364  14.000  1.000000  -166.400  1.000000  -166.400  0.000364  14.000
1548.750  0.000654  13.125  1.000000  -167.250  1.000000  -167.250  0.000654  13.125
1555.500  0.001090  12.250  0.999999  -168.100  0.999999  -168.100  0.001090  12.250
1562.250  0.001710  11.375  0.999999  -168.950  0.999999  -168.950  0.001710  11.375
1569.000  0.002560  10.500  0.999997  -169.800  0.999997  -169.800  0.002560  10.500
1575.750  0.003688  9.625  0.999993  -170.650  0.999993  -170.650  0.003688  9.625
1582.500  0.005146  8.750  0.999987  -171.500  0.999987  -171.500  0.005146  8.750
1589.250  0.006990  7.875  0.999976  -172.350  0.999976  -172.350  0.006990  7.875
1596.000  0.009280  7.000  0.999957  -173.200  0.999957  -173.200  0.009280  7.000
1602.750  0.012079  6.125  0.999927  -174.050  0.999927  -174.050  0.012079  6.125
1609.500  0.015452  5.250  0.999881  -174.900  0.999881  -174.900  0.015452  5.250
1616.250  0.019471  4.375  0.999810  -175.750  0.999810  -175.750  0.019471  4.375
1623.000  0.024205  3.500  0.999707  -176.600  0.999707  -176.600  0.024205  3.500
1629.750  0.029729  2.625  0.999558  -177.450  0.999558  -177.450  0.029729  2.625
1636.500  0.036121  1.750  0.999347  -178.300  0.999347  -178.300  0.036121  1.750
1643.250  0.043457  0.875  0.999055  -179.150  0.999055  -179.150  0.043457  0.875
1650.000  0.051818  0.000  0.998657  -180.000  0.998657  -180.000  0.051818  0.000
1656.750  0.061283  -0.875  0.998120  179.150  0.998120  179.150  0.061283  -0.875
1663.500  0.071932  -1.750  0.997410  178.300  0.997410  178.300  0.071932  -1.750
1670.250  0.083842  -2.625  0.996479  177.450  0.996479  177.450  0.083842  -2.625
1677.000  0.097089  -3.500  0.995276  176.600  0.995276  176.600  0.097089  -3.500
1683.750  0.111743  -4.375  0.993737  175.750  0.993737  175.750  0.111743  -4.375
1690.500  0.127870  -5.250  0.991791  174.900  0.991791  174.900  0.127870  -5.250
1697.250  0.145525  -6.125  0.989355  174.050  0.989355  174.050  0.145525  -6.125
1704.000  0.164752  -7.000  0.986335  173.200  0.986335  173.200  0.164752  -7.000
1710.750  0.185581  -7.875  0.982629  172.350  0.982629  172.350  0.185581  -7.875
1717.500  0.208024  -8.750  0.978124  171.500  0.978124  171.500  0.208024  -8.750
1724.250  0.232069  -9.625  0.972699  170.650  0.972699  170.650  0.232069  -9.625
1731.000  0.257681  -10.500  0.966230  169.800  0.966230  169.800  0.257681  -10.500
1737.750  0.284796  -11.375  0.958588  168.950  0.958588  168.950  0.284796  -11.375
1744.500  0.313315  -12.250  0.949649  168.100  0.949649  168.100  0.313315  -12.250
1751.250  0.343108  -13.125  0.939296  167.250  0.939296  167.250  0.343108  -13.125
1758.000  0.374009  -14.000  0.927425  166.400  0.927425  166.400  0.374009  -14.000
1764.750  0.405817  -14.875  0.913954  165.550  0.913954  165.550  0.405817  -14.875
1771.500  0.438302  -15.750  0.898828  164.700  0.898828  164.700  0.438302  -15.750
1778.250  0.471208  -16.625  0.882022  163.850  0.882022  163.850  0.471208  -16.625
1785.000  0.504257  -17.500  0.863553  163.000  0.863553  163.000  0.504257  -17.500
1791.750  0.537167  -18.375  0.843476  162.150  0.843476  162.150  0.537167  -18.375
1798.500  0.569651  -19.250  0.821887  161.300  0.821887  161.300  0.569651  -19.250
1805.250  0.601436  -20.125  0.798921  160.450  0.798921  160.450  0.601436  -20.125
1812.000  0.632270  -21.000  0.774748  159.600  0.774748  159.600  0.632270  -21.000
1818.750  0.661930  -21.875  0.749566  158.750  0.749566  158.750  0.661930  -21.875
1825.500  0.690228  -22.750  0.723591  157.900  0.723591  157.900  0.690228  -22.750
1832.250  0.717020  -23.625  0.697052  157.050  0.697052  157.050  0.717020  -23.625
1839.000  0.742202  -24.500  0.670177  156.200  0.670177  156.200  0.742202  -24.500
1845.750  0.765709  -25.375  0.643187  155.350  0.643187  155.350  0.765709  -25.375
1852.500  0.787518  -26.250  0.616292  154.500  0.616292  154.500  0.787518  -26.250
1859.250  0.807637  -27.125  0.589680  153.650  0.589680  153.650  0.807637  -27.125
1866.000  0.826105  -28.000  0.563516  152.800  0.563516  152.800  0.826105  -28.000
1872.750  0.842982  -28.875  0.537942  151.950  0.537942  151.950  0.842982  -28.875
1879.500  0.858345  -29.750  0.513073  151.100  0.513073  151.100  0.858345  -29.750
